T27A8 000:012.616   SEGGER J-Link V7.82b Log File
T27A8 000:012.767   DLL Compiled: Nov  9 2022 17:01:33
T27A8 000:012.796   Logging started @ 2026-03-15 13:29
T27A8 000:012.823 - 12.837ms
T27A8 000:012.862 JLINK_SetWarnOutHandler(...)
T27A8 000:012.894 - 0.046ms
T27A8 000:012.982 JLINK_OpenEx(...)
T27A8 000:018.538   Firmware: J-Link V9 compiled Dec 13 2022 11:14:50
T27A8 000:019.465   Firmware: J-Link V9 compiled Dec 13 2022 11:14:50
T27A8 000:019.820   Decompressing FW timestamp took 190 us
T27A8 000:028.145   Hardware: V9.70
T27A8 000:028.281   S/N: 69730374
T27A8 000:028.366   OEM: SEGGER
T27A8 000:028.447   Feature(s): RDI, GDB, FlashDL, FlashBP, JFlash
T27A8 000:045.370   TELNET listener socket opened on port 19021
T27A8 000:045.695   WEBSRV WEBSRV_Init(): Starting webserver thread(s)
T27A8 000:045.856   WEBSRV Webserver running on local port 19080
T27A8 000:065.610 - 52.680ms returns "O.K."
T27A8 000:065.807 JLINK_GetEmuCaps()
T27A8 000:065.857 - 0.077ms returns 0xB9FF7BBF
T27A8 000:065.920 JLINK_TIF_GetAvailable(...)
T27A8 000:067.446 - 1.579ms
T27A8 000:067.585 JLINK_SetErrorOutHandler(...)
T27A8 000:067.615 - 0.042ms
T27A8 000:067.680 JLINK_ExecCommand("ProjectFile = "C:\Users\86185\Desktop\Test_MyFOC_G474 _fruitpro\MDK-ARM\JLinkSettings.ini"", ...). 
T27A8 000:078.633   Ref file found at: C:\Keil_v5\ARM\Segger\JLinkDevices.ref
T27A8 000:078.765   REF file references invalid XML file: D:\AAAŐýµăÔ­×Óµç»úżŘÖĆ\JlinkÇý¶Ż\JLinkDevices.xml
T27A8 000:079.153 - 11.489ms returns 0x00
T27A8 000:079.215 JLINK_ExecCommand("Device = STM32G474VETx", ...). 
T27A8 000:079.643   Device "STM32G474VE" selected.
T27A8 000:080.289 - 1.071ms returns 0x00
T27A8 000:080.340 JLINK_ExecCommand("DisableConnectionTimeout", ...). 
T27A8 000:080.373 - 0.017ms returns 0x01
T27A8 000:080.406 JLINK_GetHardwareVersion()
T27A8 000:080.437 - 0.045ms returns 97000
T27A8 000:080.468 JLINK_GetDLLVersion()
T27A8 000:080.499 - 0.050ms returns 78202
T27A8 000:080.537 JLINK_GetOEMString(...)
T27A8 000:080.585 JLINK_GetFirmwareString(...)
T27A8 000:080.616 - 0.044ms
T27A8 000:080.669 JLINK_GetDLLVersion()
T27A8 000:080.694 - 0.037ms returns 78202
T27A8 000:080.720 JLINK_GetCompileDateTime()
T27A8 000:080.744 - 0.036ms
T27A8 000:080.775 JLINK_GetFirmwareString(...)
T27A8 000:080.800 - 0.037ms
T27A8 000:080.829 JLINK_GetHardwareVersion()
T27A8 000:080.854 - 0.037ms returns 97000
T27A8 000:080.883 JLINK_GetSN()
T27A8 000:080.911 - 0.041ms returns 69730374
T27A8 000:080.940 JLINK_GetOEMString(...)
T27A8 000:080.972 JLINK_TIF_Select(JLINKARM_TIF_SWD)
T27A8 000:083.212 - 2.266ms returns 0x00
T27A8 000:083.300 JLINK_HasError()
T27A8 000:083.343 JLINK_SetSpeed(5000)
T27A8 000:083.960 - 0.639ms
T27A8 000:084.040 JLINK_GetId()
T27A8 000:087.372   InitTarget() start
T27A8 000:087.456    J-Link Script File: Executing InitTarget()
T27A8 000:109.117   InitTarget() end
T27A8 000:110.024   Found SW-DP with ID 0x2BA01477
T27A8 000:112.323   Old FW that does not support reading DPIDR via DAP jobs
T27A8 000:113.155   DPv0 detected
T27A8 000:113.205   CoreSight SoC-400 or earlier
T27A8 000:113.251   Scanning AP map to find all available APs
T27A8 000:114.322   AP[1]: Stopped AP scan as end of AP map has been reached
T27A8 000:114.372   AP[0]: AHB-AP (IDR: 0x24770011)
T27A8 000:114.412   Iterating through AP map to find AHB-AP to use
T27A8 000:115.638   AP[0]: Core found
T27A8 000:115.698   AP[0]: AHB-AP ROM base: 0xE00FF000
T27A8 000:116.307   CPUID register: 0x410FC241. Implementer code: 0x41 (ARM)
T27A8 000:116.357   Found Cortex-M4 r0p1, Little endian.
T27A8 000:117.158   -- Max. mem block: 0x0000FD28
T27A8 000:120.300   CPU_ReadMem(4 bytes @ 0xE000EDF0)
T27A8 000:120.840   CPU_ReadMem(4 bytes @ 0xE0002000)
T27A8 000:121.463   FPUnit: 6 code (BP) slots and 2 literal slots
T27A8 000:121.517   CPU_ReadMem(4 bytes @ 0xE000EDFC)
T27A8 000:122.025   CPU_ReadMem(4 bytes @ 0xE0001000)
T27A8 000:122.538   CPU_WriteMem(4 bytes @ 0xE0001000)
T27A8 000:123.035   CPU_ReadMem(4 bytes @ 0xE000ED88)
T27A8 000:123.525   CPU_WriteMem(4 bytes @ 0xE000ED88)
T27A8 000:124.062   CPU_ReadMem(4 bytes @ 0xE000ED88)
T27A8 000:124.549   CPU_WriteMem(4 bytes @ 0xE000ED88)
T27A8 000:125.079   CoreSight components:
T27A8 000:125.126   ROMTbl[0] @ E00FF000
T27A8 000:125.164   CPU_ReadMem(64 bytes @ 0xE00FF000)
T27A8 000:125.878   CPU_ReadMem(32 bytes @ 0xE000EFE0)
T27A8 000:126.507   [0][0]: E000E000 CID B105E00D PID 000BB00C SCS-M7
T27A8 000:126.558   CPU_ReadMem(32 bytes @ 0xE0001FE0)
T27A8 000:127.225   [0][1]: E0001000 CID B105E00D PID 003BB002 DWT
T27A8 000:127.274   CPU_ReadMem(32 bytes @ 0xE0002FE0)
T27A8 000:128.145   [0][2]: E0002000 CID B105E00D PID 002BB003 FPB
T27A8 000:128.198   CPU_ReadMem(32 bytes @ 0xE0000FE0)
T27A8 000:128.855   [0][3]: E0000000 CID B105E00D PID 003BB001 ITM
T27A8 000:128.913   CPU_ReadMem(32 bytes @ 0xE0040FE0)
T27A8 000:129.553   [0][4]: E0040000 CID B105900D PID 000BB9A1 TPIU
T27A8 000:129.602   CPU_ReadMem(32 bytes @ 0xE0041FE0)
T27A8 000:130.231   [0][5]: E0041000 CID B105900D PID 000BB925 ETM
T27A8 000:130.713 - 46.695ms returns 0x2BA01477
T27A8 000:130.794 JLINK_GetDLLVersion()
T27A8 000:130.825 - 0.043ms returns 78202
T27A8 000:130.852 JLINK_CORE_GetFound()
T27A8 000:130.881 - 0.043ms returns 0xE0000FF
T27A8 000:130.913 JLINK_GetDebugInfo(0x100 = JLINKARM_ROM_TABLE_ADDR_INDEX)
T27A8 000:130.955   Value=0xE00FF000
T27A8 000:130.995 - 0.094ms returns 0
T27A8 000:131.032 JLINK_GetDebugInfo(0x100 = JLINKARM_ROM_TABLE_ADDR_INDEX)
T27A8 000:131.058   Value=0xE00FF000
T27A8 000:131.097 - 0.080ms returns 0
T27A8 000:131.126 JLINK_GetDebugInfo(0x101 = JLINKARM_DEBUG_INFO_ETM_ADDR_INDEX)
T27A8 000:131.153   Value=0xE0041000
T27A8 000:131.190 - 0.076ms returns 0
T27A8 000:131.222 JLINK_ReadMemEx(0xE0041FD0, 0x20 Bytes, Flags = 0x02000004)
T27A8 000:131.269   CPU_ReadMem(32 bytes @ 0xE0041FD0)
T27A8 000:132.272   Data:  04 00 00 00 00 00 00 00 00 00 00 00 00 00 00 00 ...
T27A8 000:132.316 - 1.105ms returns 32 (0x20)
T27A8 000:132.375 JLINK_GetDebugInfo(0x102 = JLINKARM_DEBUG_INFO_MTB_ADDR_INDEX)
T27A8 000:132.406   Value=0x00000000
T27A8 000:132.442 - 0.079ms returns 0
T27A8 000:132.469 JLINK_GetDebugInfo(0x103 = JLINKARM_DEBUG_INFO_TPIU_ADDR_INDEX)
T27A8 000:132.494   Value=0xE0040000
T27A8 000:132.530 - 0.073ms returns 0
T27A8 000:132.556 JLINK_GetDebugInfo(0x104 = JLINKARM_DEBUG_INFO_ITM_ADDR_INDEX)
T27A8 000:132.581   Value=0xE0000000
T27A8 000:132.620 - 0.078ms returns 0
T27A8 000:132.652 JLINK_GetDebugInfo(0x105 = JLINKARM_DEBUG_INFO_DWT_ADDR_INDEX)
T27A8 000:132.690   Value=0xE0001000
T27A8 000:132.732 - 0.092ms returns 0
T27A8 000:132.760 JLINK_GetDebugInfo(0x106 = JLINKARM_DEBUG_INFO_FPB_ADDR_INDEX)
T27A8 000:132.786   Value=0xE0002000
T27A8 000:132.823 - 0.075ms returns 0
T27A8 000:132.850 JLINK_GetDebugInfo(0x107 = JLINKARM_DEBUG_INFO_NVIC_ADDR_INDEX)
T27A8 000:132.875   Value=0xE000E000
T27A8 000:132.911 - 0.073ms returns 0
T27A8 000:132.938 JLINK_GetDebugInfo(0x10C = JLINKARM_DEBUG_INFO_DBG_ADDR_INDEX)
T27A8 000:132.965   Value=0xE000EDF0
T27A8 000:133.009 - 0.083ms returns 0
T27A8 000:133.035 JLINK_GetDebugInfo(0x01 = Unknown)
T27A8 000:133.068   Value=0x00000001
T27A8 000:133.106 - 0.082ms returns 0
T27A8 000:133.132 JLINK_ReadMemU32(0xE000ED00, 0x1 Items)
T27A8 000:133.165   CPU_ReadMem(4 bytes @ 0xE000ED00)
T27A8 000:133.765   Data:  41 C2 0F 41
T27A8 000:133.809   Debug reg: CPUID
T27A8 000:133.846 - 0.726ms returns 1 (0x1)
T27A8 000:133.905 JLINK_GetDebugInfo(0x10F = JLINKARM_DEBUG_INFO_HAS_CORTEX_M_SECURITY_EXT_INDEX)
T27A8 000:133.935   Value=0x00000000
T27A8 000:133.975 - 0.084ms returns 0
T27A8 000:134.004 JLINK_HasError()
T27A8 000:134.031 JLINK_SetResetType(JLINKARM_CM3_RESET_TYPE_NORMAL)
T27A8 000:134.057 - 0.037ms returns JLINKARM_CM3_RESET_TYPE_NORMAL
T27A8 000:134.083 JLINK_Reset()
T27A8 000:134.225   CPU is running
T27A8 000:134.277   CPU_WriteMem(4 bytes @ 0xE000EDF0)
T27A8 000:134.863   CPU is running
T27A8 000:134.909   CPU_WriteMem(4 bytes @ 0xE000EDFC)
T27A8 000:135.504   Reset: Halt core after reset via DEMCR.VC_CORERESET.
T27A8 000:136.334   Reset: Reset device via AIRCR.SYSRESETREQ.
T27A8 000:136.380   CPU is running
T27A8 000:136.420   CPU_WriteMem(4 bytes @ 0xE000ED0C)
T27A8 000:191.901   CPU_ReadMem(4 bytes @ 0xE000EDF0)
T27A8 000:192.575   CPU_ReadMem(4 bytes @ 0xE000EDF0)
T27A8 000:193.195   CPU is running
T27A8 000:193.285   CPU_WriteMem(4 bytes @ 0xE000EDF0)
T27A8 000:193.984   CPU is running
T27A8 000:194.036   CPU_WriteMem(4 bytes @ 0xE000EDFC)
T27A8 000:200.440   CPU_ReadMem(4 bytes @ 0xE000EDF0)
T27A8 000:204.138   CPU_WriteMem(4 bytes @ 0xE0002000)
T27A8 000:204.834   CPU_ReadMem(4 bytes @ 0xE000EDFC)
T27A8 000:205.512   CPU_ReadMem(4 bytes @ 0xE0001000)
T27A8 000:206.245 - 72.187ms
T27A8 000:206.328 JLINK_HasError()
T27A8 000:206.362 JLINK_ReadReg(R15 (PC))
T27A8 000:206.411 - 0.064ms returns 0x080001F0
T27A8 000:206.442 JLINK_ReadReg(XPSR)
T27A8 000:206.468 - 0.038ms returns 0x01000000
T27A8 000:206.495 JLINK_Halt()
T27A8 000:206.520 - 0.037ms returns 0x00
T27A8 000:206.547 JLINK_ReadMemU32(0xE000EDF0, 0x1 Items)
T27A8 000:206.578   CPU_ReadMem(4 bytes @ 0xE000EDF0)
T27A8 000:207.381   Data:  03 00 03 00
T27A8 000:207.435   Debug reg: DHCSR
T27A8 000:207.472 - 0.937ms returns 1 (0x1)
T27A8 000:207.556 JLINK_WriteU32_64(0xE000EDF0, 0xA05F0003)
T27A8 000:207.586   Debug reg: DHCSR
T27A8 000:207.810   CPU_WriteMem(4 bytes @ 0xE000EDF0)
T27A8 000:208.426 - 0.893ms returns 0 (0x00000000)
T27A8 000:208.503 JLINK_WriteU32_64(0xE000EDFC, 0x01000000)
T27A8 000:208.532   Debug reg: DEMCR
T27A8 000:208.574   CPU_WriteMem(4 bytes @ 0xE000EDFC)
T27A8 000:209.154 - 0.672ms returns 0 (0x00000000)
T27A8 000:209.263 JLINK_GetHWStatus(...)
T27A8 000:209.712 - 0.470ms returns 0
T27A8 000:209.801 JLINK_GetNumBPUnits(Type = 0xFFFFFF00)
T27A8 000:209.830 - 0.042ms returns 0x06
T27A8 000:209.857 JLINK_GetNumBPUnits(Type = 0xF0)
T27A8 000:209.882 - 0.037ms returns 0x2000
T27A8 000:209.908 JLINK_GetNumWPUnits()
T27A8 000:209.932 - 0.037ms returns 4
T27A8 000:209.966 JLINK_GetSpeed()
T27A8 000:209.993 - 0.039ms returns 4000
T27A8 000:210.023 JLINK_ReadMemU32(0xE000E004, 0x1 Items)
T27A8 000:210.054   CPU_ReadMem(4 bytes @ 0xE000E004)
T27A8 000:210.625   Data:  03 00 00 00
T27A8 000:210.676 - 0.665ms returns 1 (0x1)
T27A8 000:210.739 JLINK_ReadMemU32(0xE000E004, 0x1 Items)
T27A8 000:210.772   CPU_ReadMem(4 bytes @ 0xE000E004)
T27A8 000:211.345   Data:  03 00 00 00
T27A8 000:211.414 - 0.690ms returns 1 (0x1)
T27A8 000:211.503 JLINK_WriteMemEx(0xE0001000, 0x0000001C Bytes, Flags = 0x02000004)
T27A8 000:211.541   Data:  01 00 00 00 00 00 00 00 00 00 00 00 00 00 00 00 ...
T27A8 000:211.597   CPU_WriteMem(28 bytes @ 0xE0001000)
T27A8 000:212.352 - 0.876ms returns 0x1C
T27A8 000:212.436 JLINK_HasError()
T27A8 000:212.467 JLINK_ReadReg(R15 (PC))
T27A8 000:212.496 - 0.042ms returns 0x080001F0
T27A8 000:212.522 JLINK_ReadReg(XPSR)
T27A8 000:212.548 - 0.038ms returns 0x01000000
T27A8 000:218.108 JLINK_ReadMemEx(0xE0001004, 0x4 Bytes, Flags = 0x02000000)
T27A8 000:218.203   Data:  00 00 00 00
T27A8 000:218.242   Debug reg: DWT_CYCCNT
T27A8 000:218.280 - 0.184ms returns 4 (0x4)
T27A8 000:328.852 JLINK_HasError()
T27A8 000:328.922 JLINK_SetResetType(JLINKARM_CM3_RESET_TYPE_NORMAL)
T27A8 000:328.949 - 0.039ms returns JLINKARM_CM3_RESET_TYPE_NORMAL
T27A8 000:328.976 JLINK_Reset()
T27A8 000:329.293   CPU_WriteMem(4 bytes @ 0xE000EDF0)
T27A8 000:329.954   CPU_WriteMem(4 bytes @ 0xE000EDFC)
T27A8 000:330.673   Reset: Halt core after reset via DEMCR.VC_CORERESET.
T27A8 000:331.571   Reset: Reset device via AIRCR.SYSRESETREQ.
T27A8 000:331.644   CPU_WriteMem(4 bytes @ 0xE000ED0C)
T27A8 000:386.208   CPU_ReadMem(4 bytes @ 0xE000EDF0)
T27A8 000:386.884   CPU_ReadMem(4 bytes @ 0xE000EDF0)
T27A8 000:387.483   CPU_WriteMem(4 bytes @ 0xE000EDF0)
T27A8 000:388.243   CPU_WriteMem(4 bytes @ 0xE000EDFC)
T27A8 000:395.155   CPU_ReadMem(4 bytes @ 0xE000EDF0)
T27A8 000:399.000   CPU_WriteMem(4 bytes @ 0xE0002000)
T27A8 000:399.854   CPU_ReadMem(4 bytes @ 0xE000EDFC)
T27A8 000:400.670   CPU_ReadMem(4 bytes @ 0xE0001000)
T27A8 000:401.475 - 72.544ms
T27A8 000:401.661 JLINK_HasError()
T27A8 000:401.695 JLINK_ReadReg(R15 (PC))
T27A8 000:401.730 - 0.048ms returns 0x080001F0
T27A8 000:401.760 JLINK_ReadReg(XPSR)
T27A8 000:401.786 - 0.038ms returns 0x01000000
T27A8 000:402.323 JLINK_ReadMemEx(0x080001F0, 0x3C Bytes, Flags = 0x02000000)
T27A8 000:402.365   CPU_ReadMem(128 bytes @ 0x080001C0)
T27A8 000:403.555    -- Updating C cache (128 bytes @ 0x080001C0)
T27A8 000:403.605    -- Read from C cache (60 bytes @ 0x080001F0)
T27A8 000:403.644   Data:  06 48 80 47 06 48 00 47 FE E7 FE E7 FE E7 FE E7 ...
T27A8 000:403.681 - 1.370ms returns 60 (0x3C)
T27A8 000:403.747 JLINK_ReadMemEx(0x080001F0, 0x2 Bytes, Flags = 0x02000000)
T27A8 000:403.779    -- Read from C cache (2 bytes @ 0x080001F0)
T27A8 000:403.816   Data:  06 48
T27A8 000:403.854 - 0.118ms returns 2 (0x2)
T27A8 000:403.924 JLINK_ReadMemEx(0x080001F2, 0x2 Bytes, Flags = 0x02000000)
T27A8 000:403.951    -- Read from C cache (2 bytes @ 0x080001F2)
T27A8 000:403.987   Data:  80 47
T27A8 000:404.024 - 0.112ms returns 2 (0x2)
T27A8 003:368.585 JLINK_ReadMemEx(0x080001F2, 0x2 Bytes, Flags = 0x02000000)
T27A8 003:368.655    -- Read from C cache (2 bytes @ 0x080001F2)
T27A8 003:368.695   Data:  80 47
T27A8 003:368.733 - 0.161ms returns 2 (0x2)
T27A8 003:368.761 JLINK_ReadMemEx(0x080001F4, 0x3C Bytes, Flags = 0x02000000)
T27A8 003:368.787    -- Read from C cache (60 bytes @ 0x080001F4)
T27A8 003:368.826   Data:  06 48 00 47 FE E7 FE E7 FE E7 FE E7 FE E7 FE E7 ...
T27A8 003:368.864 - 0.116ms returns 60 (0x3C)
T27A8 003:368.891 JLINK_ReadMemEx(0x080001F4, 0x2 Bytes, Flags = 0x02000000)
T27A8 003:368.919    -- Read from C cache (2 bytes @ 0x080001F4)
T27A8 003:368.958   Data:  06 48
T27A8 003:368.998 - 0.119ms returns 2 (0x2)
T27A8 003:923.573 JLINK_HasError()
T27A8 003:923.645 JLINK_ReadReg(R0)
T27A8 003:924.464 - 0.840ms returns 0x00000000
T27A8 003:924.534 JLINK_ReadReg(R1)
T27A8 003:924.565 - 0.044ms returns 0x00000000
T27A8 003:924.591 JLINK_ReadReg(R2)
T27A8 003:924.617 - 0.038ms returns 0x00000000
T27A8 003:924.643 JLINK_ReadReg(R3)
T27A8 003:924.669 - 0.037ms returns 0x00000000
T27A8 003:924.694 JLINK_ReadReg(R4)
T27A8 003:924.720 - 0.038ms returns 0x00000000
T27A8 003:924.746 JLINK_ReadReg(R5)
T27A8 003:924.771 - 0.037ms returns 0x00000000
T27A8 003:924.797 JLINK_ReadReg(R6)
T27A8 003:924.825 - 0.039ms returns 0x00000000
T27A8 003:924.851 JLINK_ReadReg(R7)
T27A8 003:924.877 - 0.039ms returns 0x00000000
T27A8 003:924.903 JLINK_ReadReg(R8)
T27A8 003:924.946 - 0.055ms returns 0x00000000
T27A8 003:924.972 JLINK_ReadReg(R9)
T27A8 003:924.997 - 0.037ms returns 0x00000000
T27A8 003:925.023 JLINK_ReadReg(R10)
T27A8 003:925.048 - 0.037ms returns 0x00000000
T27A8 003:925.074 JLINK_ReadReg(R11)
T27A8 003:925.099 - 0.038ms returns 0x00000000
T27A8 003:925.125 JLINK_ReadReg(R12)
T27A8 003:925.150 - 0.037ms returns 0x00000000
T27A8 003:925.176 JLINK_ReadReg(R13 (SP))
T27A8 003:925.202 - 0.039ms returns 0x200007E0
T27A8 003:925.229 JLINK_ReadReg(R14)
T27A8 003:925.254 - 0.037ms returns 0xFFFFFFFF
T27A8 003:925.280 JLINK_ReadReg(R15 (PC))
T27A8 003:925.305 - 0.037ms returns 0x080001F0
T27A8 003:925.330 JLINK_ReadReg(XPSR)
T27A8 003:925.355 - 0.037ms returns 0x01000000
T27A8 003:925.381 JLINK_ReadReg(MSP)
T27A8 003:925.411 - 0.042ms returns 0x200007E0
T27A8 003:925.436 JLINK_ReadReg(PSP)
T27A8 003:925.461 - 0.037ms returns 0x00000000
T27A8 003:925.487 JLINK_ReadReg(CFBP)
T27A8 003:925.512 - 0.037ms returns 0x00000000
T27A8 003:925.538 JLINK_ReadReg(FPSCR)
T27A8 003:929.454 - 3.968ms returns 0x00000000
T27A8 003:929.562 JLINK_ReadReg(FPS0)
T27A8 003:929.598 - 0.049ms returns 0x00000000
T27A8 003:929.625 JLINK_ReadReg(FPS1)
T27A8 003:929.651 - 0.038ms returns 0x00000000
T27A8 003:929.677 JLINK_ReadReg(FPS2)
T27A8 003:929.703 - 0.037ms returns 0x00000000
T27A8 003:929.728 JLINK_ReadReg(FPS3)
T27A8 003:929.754 - 0.037ms returns 0x00000000
T27A8 003:929.780 JLINK_ReadReg(FPS4)
T27A8 003:929.805 - 0.101ms returns 0x00000000
T27A8 003:929.898 JLINK_ReadReg(FPS5)
T27A8 003:929.933 - 0.047ms returns 0x00000000
T27A8 003:929.959 JLINK_ReadReg(FPS6)
T27A8 003:929.985 - 0.038ms returns 0x00000000
T27A8 003:930.011 JLINK_ReadReg(FPS7)
T27A8 003:930.036 - 0.037ms returns 0x00000000
T27A8 003:930.062 JLINK_ReadReg(FPS8)
T27A8 003:930.087 - 0.037ms returns 0x00000000
T27A8 003:930.114 JLINK_ReadReg(FPS9)
T27A8 003:930.139 - 0.037ms returns 0x00000000
T27A8 003:930.165 JLINK_ReadReg(FPS10)
T27A8 003:930.190 - 0.037ms returns 0x00000000
T27A8 003:930.216 JLINK_ReadReg(FPS11)
T27A8 003:930.243 - 0.041ms returns 0x00000000
T27A8 003:930.271 JLINK_ReadReg(FPS12)
T27A8 003:930.296 - 0.037ms returns 0x00000000
T27A8 003:930.322 JLINK_ReadReg(FPS13)
T27A8 003:930.348 - 0.037ms returns 0x00000000
T27A8 003:930.373 JLINK_ReadReg(FPS14)
T27A8 003:930.398 - 0.037ms returns 0x00000000
T27A8 003:930.424 JLINK_ReadReg(FPS15)
T27A8 003:930.449 - 0.037ms returns 0x00000000
T27A8 003:930.475 JLINK_ReadReg(FPS16)
T27A8 003:930.501 - 0.037ms returns 0x00000000
T27A8 003:930.526 JLINK_ReadReg(FPS17)
T27A8 003:930.552 - 0.038ms returns 0x00000000
T27A8 003:930.578 JLINK_ReadReg(FPS18)
T27A8 003:930.603 - 0.038ms returns 0x00000000
T27A8 003:930.629 JLINK_ReadReg(FPS19)
T27A8 003:930.654 - 0.037ms returns 0x00000000
T27A8 003:930.680 JLINK_ReadReg(FPS20)
T27A8 003:930.705 - 0.037ms returns 0x00000000
T27A8 003:930.731 JLINK_ReadReg(FPS21)
T27A8 003:930.756 - 0.037ms returns 0x00000000
T27A8 003:930.782 JLINK_ReadReg(FPS22)
T27A8 003:930.807 - 0.037ms returns 0x00000000
T27A8 003:930.833 JLINK_ReadReg(FPS23)
T27A8 003:930.858 - 0.037ms returns 0x00000000
T27A8 003:930.884 JLINK_ReadReg(FPS24)
T27A8 003:930.909 - 0.037ms returns 0x00000000
T27A8 003:930.935 JLINK_ReadReg(FPS25)
T27A8 003:930.960 - 0.037ms returns 0x00000000
T27A8 003:930.986 JLINK_ReadReg(FPS26)
T27A8 003:931.011 - 0.038ms returns 0x00000000
T27A8 003:931.037 JLINK_ReadReg(FPS27)
T27A8 003:931.062 - 0.037ms returns 0x00000000
T27A8 003:931.088 JLINK_ReadReg(FPS28)
T27A8 003:931.113 - 0.037ms returns 0x00000000
T27A8 003:931.139 JLINK_ReadReg(FPS29)
T27A8 003:931.164 - 0.037ms returns 0x00000000
T27A8 003:931.189 JLINK_ReadReg(FPS30)
T27A8 003:931.215 - 0.039ms returns 0x00000000
T27A8 003:931.244 JLINK_ReadReg(FPS31)
T27A8 003:931.269 - 0.037ms returns 0x00000000
T27A8 003:931.302 JLINK_ReadMemEx(0x20000008, 0x4 Bytes, Flags = 0x02000000)
T27A8 003:931.336   CPU_ReadMem(64 bytes @ 0x20000000)
T27A8 003:932.223    -- Updating C cache (64 bytes @ 0x20000000)
T27A8 003:932.321    -- Read from C cache (4 bytes @ 0x20000008)
T27A8 003:932.403   Data:  68 40 08 24
T27A8 003:932.483 - 1.208ms returns 4 (0x4)
T27A8 003:943.232 JLINK_ReadMemEx(0x20000008, 0x4 Bytes, Flags = 0x02000000)
T27A8 003:943.310    -- Read from C cache (4 bytes @ 0x20000008)
T27A8 003:943.349   Data:  68 40 08 24
T27A8 003:943.387 - 0.167ms returns 4 (0x4)
T27A8 003:943.436 JLINK_ReadMemEx(0x20000008, 0x4 Bytes, Flags = 0x02000000)
T27A8 003:943.463    -- Read from C cache (4 bytes @ 0x20000008)
T27A8 003:943.501   Data:  68 40 08 24
T27A8 003:943.538 - 0.114ms returns 4 (0x4)
T27A8 003:952.094 JLINK_ReadMemEx(0x20000018, 0x4 Bytes, Flags = 0x02000000)
T27A8 003:952.155    -- Read from C cache (4 bytes @ 0x20000018)
T27A8 003:952.194   Data:  52 1E 00 2A
T27A8 003:952.232 - 0.151ms returns 4 (0x4)
T27A8 003:952.390 JLINK_ReadMemEx(0x20000018, 0x4 Bytes, Flags = 0x02000000)
T27A8 003:952.420    -- Read from C cache (4 bytes @ 0x20000018)
T27A8 003:952.458   Data:  52 1E 00 2A
T27A8 003:952.495 - 0.117ms returns 4 (0x4)
T27A8 003:952.539 JLINK_ReadMemEx(0x20000018, 0x4 Bytes, Flags = 0x02000000)
T27A8 003:952.566    -- Read from C cache (4 bytes @ 0x20000018)
T27A8 003:952.604   Data:  52 1E 00 2A
T27A8 003:952.641 - 0.114ms returns 4 (0x4)
T27A8 003:959.254 JLINK_ReadMemEx(0x2000001C, 0x4 Bytes, Flags = 0x02000000)
T27A8 003:959.332    -- Read from C cache (4 bytes @ 0x2000001C)
T27A8 003:959.372   Data:  F2 D1 70 47
T27A8 003:959.410 - 0.172ms returns 4 (0x4)
T27A8 003:959.566 JLINK_ReadMemEx(0x2000001C, 0x4 Bytes, Flags = 0x02000000)
T27A8 003:959.595    -- Read from C cache (4 bytes @ 0x2000001C)
T27A8 003:959.632   Data:  F2 D1 70 47
T27A8 003:959.669 - 0.115ms returns 4 (0x4)
T27A8 003:959.712 JLINK_ReadMemEx(0x2000001C, 0x4 Bytes, Flags = 0x02000000)
T27A8 003:959.741    -- Read from C cache (4 bytes @ 0x2000001C)
T27A8 003:959.778   Data:  F2 D1 70 47
T27A8 003:959.815 - 0.116ms returns 4 (0x4)
T27A8 003:968.898 JLINK_ReadMemEx(0x20000020, 0x4 Bytes, Flags = 0x02000000)
T27A8 003:968.976    -- Read from C cache (4 bytes @ 0x20000020)
T27A8 003:969.016   Data:  70 B5 60 4D
T27A8 003:969.054 - 0.168ms returns 4 (0x4)
T27A8 003:969.217 JLINK_ReadMemEx(0x20000020, 0x4 Bytes, Flags = 0x02000000)
T27A8 003:969.247    -- Read from C cache (4 bytes @ 0x20000020)
T27A8 003:969.285   Data:  70 B5 60 4D
T27A8 003:969.326 - 0.122ms returns 4 (0x4)
T27A8 003:969.373 JLINK_ReadMemEx(0x20000020, 0x4 Bytes, Flags = 0x02000000)
T27A8 003:969.401    -- Read from C cache (4 bytes @ 0x20000020)
T27A8 003:969.438   Data:  70 B5 60 4D
T27A8 003:969.475 - 0.114ms returns 4 (0x4)
T27A8 003:977.780 JLINK_ReadMemEx(0x2000008C, 0x4 Bytes, Flags = 0x02000000)
T27A8 003:977.867   CPU_ReadMem(64 bytes @ 0x20000080)
T27A8 003:978.914    -- Updating C cache (64 bytes @ 0x20000080)
T27A8 003:979.038    -- Read from C cache (4 bytes @ 0x2000008C)
T27A8 003:979.121   Data:  01 20 70 47
T27A8 003:979.202 - 1.449ms returns 4 (0x4)
T27A8 003:979.651 JLINK_ReadMemEx(0x2000008C, 0x4 Bytes, Flags = 0x02000000)
T27A8 003:979.703    -- Read from C cache (4 bytes @ 0x2000008C)
T27A8 003:979.742   Data:  01 20 70 47
T27A8 003:979.779 - 0.141ms returns 4 (0x4)
T27A8 003:979.833 JLINK_ReadMemEx(0x2000008C, 0x4 Bytes, Flags = 0x02000000)
T27A8 003:979.862    -- Read from C cache (4 bytes @ 0x2000008C)
T27A8 003:979.900   Data:  01 20 70 47
T27A8 003:979.938 - 0.118ms returns 4 (0x4)
T27A8 003:990.099 JLINK_ReadMemEx(0x20000090, 0x4 Bytes, Flags = 0x02000000)
T27A8 003:990.181    -- Read from C cache (4 bytes @ 0x20000090)
T27A8 003:990.220   Data:  44 48 49 49
T27A8 003:990.258 - 0.172ms returns 4 (0x4)
T27A8 003:990.457 JLINK_ReadMemEx(0x20000090, 0x4 Bytes, Flags = 0x02000000)
T27A8 003:990.495    -- Read from C cache (4 bytes @ 0x20000090)
T27A8 003:990.532   Data:  44 48 49 49
T27A8 003:990.570 - 0.125ms returns 4 (0x4)
T27A8 003:990.617 JLINK_ReadMemEx(0x20000090, 0x4 Bytes, Flags = 0x02000000)
T27A8 003:990.645    -- Read from C cache (4 bytes @ 0x20000090)
T27A8 003:990.682   Data:  44 48 49 49
T27A8 003:990.719 - 0.115ms returns 4 (0x4)
T27A8 003:999.231 JLINK_ReadMemEx(0x20000384, 0x4 Bytes, Flags = 0x02000000)
T27A8 003:999.315   CPU_ReadMem(64 bytes @ 0x20000380)
T27A8 004:000.421    -- Updating C cache (64 bytes @ 0x20000380)
T27A8 004:000.478    -- Read from C cache (4 bytes @ 0x20000384)
T27A8 004:000.516   Data:  41 90 43 3C
T27A8 004:000.553 - 1.335ms returns 4 (0x4)
T27A8 004:000.944 JLINK_ReadMemEx(0x20000384, 0x4 Bytes, Flags = 0x02000000)
T27A8 004:000.981    -- Read from C cache (4 bytes @ 0x20000384)
T27A8 004:001.019   Data:  41 90 43 3C
T27A8 004:001.057 - 0.125ms returns 4 (0x4)
T27A8 004:001.104 JLINK_ReadMemEx(0x20000384, 0x4 Bytes, Flags = 0x02000000)
T27A8 004:001.132    -- Read from C cache (4 bytes @ 0x20000384)
T27A8 004:001.169   Data:  41 90 43 3C
T27A8 004:001.207 - 0.116ms returns 4 (0x4)
T27A8 004:010.458 JLINK_ReadMemEx(0x20000078, 0x4 Bytes, Flags = 0x02000000)
T27A8 004:010.543   CPU_ReadMem(64 bytes @ 0x20000040)
T27A8 004:011.597    -- Updating C cache (64 bytes @ 0x20000040)
T27A8 004:011.676    -- Read from C cache (4 bytes @ 0x20000078)
T27A8 004:011.715   Data:  70 BD 4A 48
T27A8 004:011.753 - 1.308ms returns 4 (0x4)
T27A8 004:012.129 JLINK_ReadMemEx(0x20000078, 0x4 Bytes, Flags = 0x02000000)
T27A8 004:012.203    -- Read from C cache (4 bytes @ 0x20000078)
T27A8 004:012.243   Data:  70 BD 4A 48
T27A8 004:012.281 - 0.164ms returns 4 (0x4)
T27A8 004:012.336 JLINK_ReadMemEx(0x20000078, 0x4 Bytes, Flags = 0x02000000)
T27A8 004:012.372    -- Read from C cache (4 bytes @ 0x20000078)
T27A8 004:012.415   Data:  70 BD 4A 48
T27A8 004:012.452 - 0.128ms returns 4 (0x4)
T27A8 004:023.672 JLINK_ReadMemEx(0x20000074, 0x4 Bytes, Flags = 0x02000000)
T27A8 004:023.751    -- Read from C cache (4 bytes @ 0x20000074)
T27A8 004:023.790   Data:  81 60 00 20
T27A8 004:023.829 - 0.169ms returns 4 (0x4)
T27A8 004:023.985 JLINK_ReadMemEx(0x20000074, 0x4 Bytes, Flags = 0x02000000)
T27A8 004:024.018    -- Read from C cache (4 bytes @ 0x20000074)
T27A8 004:024.057   Data:  81 60 00 20
T27A8 004:024.094 - 0.121ms returns 4 (0x4)
T27A8 004:024.142 JLINK_ReadMemEx(0x20000074, 0x4 Bytes, Flags = 0x02000000)
T27A8 004:024.170    -- Read from C cache (4 bytes @ 0x20000074)
T27A8 004:024.208   Data:  81 60 00 20
T27A8 004:024.245 - 0.114ms returns 4 (0x4)
T27A8 004:035.175 JLINK_ReadMemEx(0x20000030, 0x4 Bytes, Flags = 0x02000000)
T27A8 004:035.253    -- Read from C cache (4 bytes @ 0x20000030)
T27A8 004:035.292   Data:  FC D4 5E 4E
T27A8 004:035.331 - 0.168ms returns 4 (0x4)
T27A8 004:035.517 JLINK_ReadMemEx(0x20000030, 0x4 Bytes, Flags = 0x02000000)
T27A8 004:035.548    -- Read from C cache (4 bytes @ 0x20000030)
T27A8 004:035.590   Data:  FC D4 5E 4E
T27A8 004:035.628 - 0.123ms returns 4 (0x4)
T27A8 004:035.673 JLINK_ReadMemEx(0x20000030, 0x4 Bytes, Flags = 0x02000000)
T27A8 004:035.701    -- Read from C cache (4 bytes @ 0x20000030)
T27A8 004:035.739   Data:  FC D4 5E 4E
T27A8 004:035.775 - 0.116ms returns 4 (0x4)
T27A8 004:058.306 JLINK_ReadMemEx(0x2000038C, 0x4 Bytes, Flags = 0x02000000)
T27A8 004:058.386    -- Read from C cache (4 bytes @ 0x2000038C)
T27A8 004:058.425   Data:  A6 F8 10 11
T27A8 004:058.464 - 0.170ms returns 4 (0x4)
T27A8 004:058.768 JLINK_ReadMemEx(0x2000038C, 0x4 Bytes, Flags = 0x02000000)
T27A8 004:058.809    -- Read from C cache (4 bytes @ 0x2000038C)
T27A8 004:058.847   Data:  A6 F8 10 11
T27A8 004:058.885 - 0.129ms returns 4 (0x4)
T27A8 004:058.934 JLINK_ReadMemEx(0x2000038C, 0x4 Bytes, Flags = 0x02000000)
T27A8 004:058.966    -- Read from C cache (4 bytes @ 0x2000038C)
T27A8 004:059.005   Data:  A6 F8 10 11
T27A8 004:059.042 - 0.120ms returns 4 (0x4)
T27A8 004:070.314 JLINK_ReadMemEx(0x20000034, 0x4 Bytes, Flags = 0x02000000)
T27A8 004:070.393    -- Read from C cache (4 bytes @ 0x20000034)
T27A8 004:070.433   Data:  4E 44 30 60
T27A8 004:070.471 - 0.169ms returns 4 (0x4)
T27A8 004:070.669 JLINK_ReadMemEx(0x20000034, 0x4 Bytes, Flags = 0x02000000)
T27A8 004:070.703    -- Read from C cache (4 bytes @ 0x20000034)
T27A8 004:070.741   Data:  4E 44 30 60
T27A8 004:070.778 - 0.121ms returns 4 (0x4)
T27A8 004:070.826 JLINK_ReadMemEx(0x20000034, 0x4 Bytes, Flags = 0x02000000)
T27A8 004:070.855    -- Read from C cache (4 bytes @ 0x20000034)
T27A8 004:070.892   Data:  4E 44 30 60
T27A8 004:070.929 - 0.115ms returns 4 (0x4)
T27A8 004:086.115 JLINK_ReadMemEx(0x200000A0, 0x4 Bytes, Flags = 0x02000000)
T27A8 004:086.193    -- Read from C cache (4 bytes @ 0x200000A0)
T27A8 004:086.233   Data:  41 61 BF F3
T27A8 004:086.271 - 0.169ms returns 4 (0x4)
T27A8 004:086.431 JLINK_ReadMemEx(0x200000A0, 0x4 Bytes, Flags = 0x02000000)
T27A8 004:086.463    -- Read from C cache (4 bytes @ 0x200000A0)
T27A8 004:086.500   Data:  41 61 BF F3
T27A8 004:086.538 - 0.121ms returns 4 (0x4)
T27A8 004:086.591 JLINK_ReadMemEx(0x200000A0, 0x4 Bytes, Flags = 0x02000000)
T27A8 004:086.619    -- Read from C cache (4 bytes @ 0x200000A0)
T27A8 004:086.657   Data:  41 61 BF F3
T27A8 004:086.694 - 0.115ms returns 4 (0x4)
T27A8 004:114.153 JLINK_ReadMemEx(0x20000058, 0x4 Bytes, Flags = 0x02000000)
T27A8 004:114.238    -- Read from C cache (4 bytes @ 0x20000058)
T27A8 004:114.284   Data:  00 D0 64 00
T27A8 004:114.322 - 0.182ms returns 4 (0x4)
T27A8 004:114.619 JLINK_ReadMemEx(0x20000058, 0x4 Bytes, Flags = 0x02000000)
T27A8 004:114.683    -- Read from C cache (4 bytes @ 0x20000058)
T27A8 004:114.734   Data:  00 D0 64 00
T27A8 004:114.785 - 0.180ms returns 4 (0x4)
T27A8 004:114.852 JLINK_ReadMemEx(0x20000058, 0x4 Bytes, Flags = 0x02000000)
T27A8 004:114.897    -- Read from C cache (4 bytes @ 0x20000058)
T27A8 004:114.943   Data:  00 D0 64 00
T27A8 004:114.981 - 0.142ms returns 4 (0x4)
T27A8 004:160.534 JLINK_ReadMemEx(0x20000094, 0x4 Bytes, Flags = 0x02000000)
T27A8 004:160.611    -- Read from C cache (4 bytes @ 0x20000094)
T27A8 004:160.652   Data:  01 61 C1 13
T27A8 004:160.691 - 0.170ms returns 4 (0x4)
T27A8 004:160.850 JLINK_ReadMemEx(0x20000094, 0x4 Bytes, Flags = 0x02000000)
T27A8 004:160.880    -- Read from C cache (4 bytes @ 0x20000094)
T27A8 004:160.919   Data:  01 61 C1 13
T27A8 004:160.958 - 0.120ms returns 4 (0x4)
T27A8 004:161.002 JLINK_ReadMemEx(0x20000094, 0x4 Bytes, Flags = 0x02000000)
T27A8 004:161.031    -- Read from C cache (4 bytes @ 0x20000094)
T27A8 004:161.069   Data:  01 61 C1 13
T27A8 004:161.108 - 0.118ms returns 4 (0x4)
T27A8 004:179.796 JLINK_ReadMemEx(0x20000098, 0x4 Bytes, Flags = 0x02000000)
T27A8 004:179.881    -- Read from C cache (4 bytes @ 0x20000098)
T27A8 004:179.921   Data:  41 61 41 69
T27A8 004:179.960 - 0.176ms returns 4 (0x4)
T27A8 004:180.163 JLINK_ReadMemEx(0x20000098, 0x4 Bytes, Flags = 0x02000000)
T27A8 004:180.197    -- Read from C cache (4 bytes @ 0x20000098)
T27A8 004:180.235   Data:  41 61 41 69
T27A8 004:180.273 - 0.123ms returns 4 (0x4)
T27A8 004:180.321 JLINK_ReadMemEx(0x20000098, 0x4 Bytes, Flags = 0x02000000)
T27A8 004:180.350    -- Read from C cache (4 bytes @ 0x20000098)
T27A8 004:180.388   Data:  41 61 41 69
T27A8 004:180.426 - 0.117ms returns 4 (0x4)
T27A8 004:194.770 JLINK_ReadMemEx(0x200000A4, 0x4 Bytes, Flags = 0x02000000)
T27A8 004:194.846    -- Read from C cache (4 bytes @ 0x200000A4)
T27A8 004:194.886   Data:  4F 8F 01 69
T27A8 004:194.924 - 0.167ms returns 4 (0x4)
T27A8 004:195.093 JLINK_ReadMemEx(0x200000A4, 0x4 Bytes, Flags = 0x02000000)
T27A8 004:195.152    -- Read from C cache (4 bytes @ 0x200000A4)
T27A8 004:195.199   Data:  4F 8F 01 69
T27A8 004:195.240 - 0.159ms returns 4 (0x4)
T27A8 004:195.299 JLINK_ReadMemEx(0x200000A4, 0x4 Bytes, Flags = 0x02000000)
T27A8 004:195.328    -- Read from C cache (4 bytes @ 0x200000A4)
T27A8 004:195.368   Data:  4F 8F 01 69
T27A8 004:195.405 - 0.119ms returns 4 (0x4)
T85E0 004:309.486 JLINK_ReadMemEx(0x080001F0, 0x2 Bytes, Flags = 0x02000000)
T85E0 004:309.594    -- Read from C cache (2 bytes @ 0x080001F0)
T85E0 004:309.701   Data:  06 48
T85E0 004:309.789 - 0.330ms returns 2 (0x2)
T85E0 004:309.848 JLINK_HasError()
T85E0 004:309.908 JLINK_SetBPEx(Addr = 0x08007310, Type = 0xFFFFFFF2)
T85E0 004:309.992 - 0.097ms returns 0x00000001
T85E0 004:310.019 JLINK_HasError()
T85E0 004:310.045 JLINK_HasError()
T85E0 004:310.071 JLINK_Go()
T85E0 004:310.103   CPU_WriteMem(4 bytes @ 0xE0002000)
T85E0 004:310.875   CPU_ReadMem(4 bytes @ 0xE0001000)
T85E0 004:311.548   CPU_WriteMem(4 bytes @ 0xE0002008)
T85E0 004:311.602   CPU_WriteMem(4 bytes @ 0xE000200C)
T85E0 004:311.644   CPU_WriteMem(4 bytes @ 0xE0002010)
T85E0 004:311.688   CPU_WriteMem(4 bytes @ 0xE0002014)
T85E0 004:311.733   CPU_WriteMem(4 bytes @ 0xE0002018)
T85E0 004:311.779   CPU_WriteMem(4 bytes @ 0xE000201C)
T85E0 004:313.183   CPU_WriteMem(4 bytes @ 0xE0001004)
T85E0 004:314.423 - 4.391ms
T85E0 004:415.433 JLINK_HasError()
T85E0 004:415.489 JLINK_IsHalted()
T85E0 004:418.318 - 2.874ms returns TRUE
T85E0 004:418.425 JLINK_HasError()
T85E0 004:418.463 JLINK_Halt()
T85E0 004:418.490 - 0.040ms returns 0x00
T85E0 004:418.518 JLINK_IsHalted()
T85E0 004:418.545 - 0.039ms returns TRUE
T85E0 004:418.573 JLINK_IsHalted()
T85E0 004:418.606 - 0.061ms returns TRUE
T85E0 004:418.649 JLINK_IsHalted()
T85E0 004:418.675 - 0.039ms returns TRUE
T85E0 004:418.702 JLINK_HasError()
T85E0 004:418.730 JLINK_ReadReg(R15 (PC))
T85E0 004:418.760 - 0.043ms returns 0x08007310
T85E0 004:418.787 JLINK_ReadReg(XPSR)
T85E0 004:418.814 - 0.040ms returns 0x61000000
T85E0 004:418.846 JLINK_HasError()
T85E0 004:418.873 JLINK_ClrBPEx(BPHandle = 0x00000001)
T85E0 004:418.901 - 0.041ms returns 0x00
T85E0 004:418.992 JLINK_HasError()
T85E0 004:419.024 JLINK_HasError()
T85E0 004:419.051 JLINK_ReadMemU32(0xE000ED30, 0x1 Items)
T85E0 004:419.086   CPU_ReadMem(4 bytes @ 0xE000ED30)
T85E0 004:419.752   Data:  02 00 00 00
T85E0 004:419.825 - 0.787ms returns 1 (0x1)
T85E0 004:419.921 JLINK_ReadMemU32(0xE0001028, 0x1 Items)
T85E0 004:419.961   CPU_ReadMem(4 bytes @ 0xE0001028)
T85E0 004:420.504   Data:  00 00 00 00
T85E0 004:420.567   Debug reg: DWT_FUNC[0]
T85E0 004:420.606 - 0.698ms returns 1 (0x1)
T85E0 004:420.675 JLINK_ReadMemU32(0xE0001038, 0x1 Items)
T85E0 004:420.717   CPU_ReadMem(4 bytes @ 0xE0001038)
T85E0 004:421.337   Data:  00 02 00 00
T85E0 004:421.411   Debug reg: DWT_FUNC[1]
T85E0 004:421.451 - 0.790ms returns 1 (0x1)
T85E0 004:421.539 JLINK_ReadMemU32(0xE0001048, 0x1 Items)
T85E0 004:421.591   CPU_ReadMem(4 bytes @ 0xE0001048)
T85E0 004:422.274   Data:  00 00 00 00
T85E0 004:422.345   Debug reg: DWT_FUNC[2]
T85E0 004:422.392 - 0.867ms returns 1 (0x1)
T85E0 004:422.481 JLINK_ReadMemU32(0xE0001058, 0x1 Items)
T85E0 004:422.530   CPU_ReadMem(4 bytes @ 0xE0001058)
T85E0 004:423.162   Data:  00 00 00 00
T85E0 004:423.229   Debug reg: DWT_FUNC[3]
T85E0 004:423.271 - 0.805ms returns 1 (0x1)
T85E0 004:423.381 JLINK_HasError()
T85E0 004:423.415 JLINK_ReadReg(R0)
T85E0 004:423.446 - 0.044ms returns 0x08007311
T85E0 004:423.474 JLINK_ReadReg(R1)
T85E0 004:423.500 - 0.039ms returns 0x200007E0
T85E0 004:423.527 JLINK_ReadReg(R2)
T85E0 004:423.553 - 0.039ms returns 0x00000000
T85E0 004:423.580 JLINK_ReadReg(R3)
T85E0 004:423.606 - 0.038ms returns 0x080072DD
T85E0 004:423.632 JLINK_ReadReg(R4)
T85E0 004:423.669 - 0.049ms returns 0x08007600
T85E0 004:423.696 JLINK_ReadReg(R5)
T85E0 004:423.726 - 0.044ms returns 0x08007600
T85E0 004:423.757 JLINK_ReadReg(R6)
T85E0 004:423.790 - 0.049ms returns 0x00000000
T85E0 004:423.825 JLINK_ReadReg(R7)
T85E0 004:423.860 - 0.052ms returns 0x00000000
T85E0 004:423.899 JLINK_ReadReg(R8)
T85E0 004:423.935 - 0.051ms returns 0x00000000
T85E0 004:423.968 JLINK_ReadReg(R9)
T85E0 004:424.000 - 0.046ms returns 0x00000000
T85E0 004:424.033 JLINK_ReadReg(R10)
T85E0 004:424.065 - 0.047ms returns 0x00000000
T85E0 004:424.097 JLINK_ReadReg(R11)
T85E0 004:424.131 - 0.049ms returns 0x00000000
T85E0 004:424.166 JLINK_ReadReg(R12)
T85E0 004:424.200 - 0.050ms returns 0x00000000
T85E0 004:424.234 JLINK_ReadReg(R13 (SP))
T85E0 004:424.267 - 0.051ms returns 0x200007E0
T85E0 004:424.305 JLINK_ReadReg(R14)
T85E0 004:424.348 - 0.059ms returns 0x08000841
T85E0 004:424.383 JLINK_ReadReg(R15 (PC))
T85E0 004:424.416 - 0.048ms returns 0x08007310
T85E0 004:424.447 JLINK_ReadReg(XPSR)
T85E0 004:424.507 - 0.077ms returns 0x61000000
T85E0 004:424.541 JLINK_ReadReg(MSP)
T85E0 004:424.567 - 0.046ms returns 0x200007E0
T85E0 004:424.607 JLINK_ReadReg(PSP)
T85E0 004:424.636 - 0.042ms returns 0x00000000
T85E0 004:424.662 JLINK_ReadReg(CFBP)
T85E0 004:424.689 - 0.039ms returns 0x00000000
T85E0 004:424.716 JLINK_ReadReg(FPSCR)
T85E0 004:428.647 - 3.965ms returns 0x00000000
T85E0 004:428.740 JLINK_ReadReg(FPS0)
T85E0 004:428.784 - 0.057ms returns 0x00000000
T85E0 004:428.812 JLINK_ReadReg(FPS1)
T85E0 004:428.839 - 0.040ms returns 0x00000000
T85E0 004:428.868 JLINK_ReadReg(FPS2)
T85E0 004:428.895 - 0.041ms returns 0x00000000
T85E0 004:428.923 JLINK_ReadReg(FPS3)
T85E0 004:428.949 - 0.039ms returns 0x00000000
T85E0 004:428.977 JLINK_ReadReg(FPS4)
T85E0 004:429.004 - 0.040ms returns 0x00000000
T85E0 004:429.032 JLINK_ReadReg(FPS5)
T85E0 004:429.059 - 0.040ms returns 0x00000000
T85E0 004:429.086 JLINK_ReadReg(FPS6)
T85E0 004:429.113 - 0.040ms returns 0x00000000
T85E0 004:429.141 JLINK_ReadReg(FPS7)
T85E0 004:429.170 - 0.042ms returns 0x00000000
T85E0 004:429.198 JLINK_ReadReg(FPS8)
T85E0 004:429.226 - 0.111ms returns 0x00000000
T85E0 004:429.328 JLINK_ReadReg(FPS9)
T85E0 004:429.371 - 0.059ms returns 0x00000000
T85E0 004:429.404 JLINK_ReadReg(FPS10)
T85E0 004:429.435 - 0.044ms returns 0x00000000
T85E0 004:429.464 JLINK_ReadReg(FPS11)
T85E0 004:429.493 - 0.048ms returns 0x00000000
T85E0 004:429.530 JLINK_ReadReg(FPS12)
T85E0 004:429.557 - 0.040ms returns 0x00000000
T85E0 004:429.585 JLINK_ReadReg(FPS13)
T85E0 004:429.618 - 0.046ms returns 0x00000000
T85E0 004:429.646 JLINK_ReadReg(FPS14)
T85E0 004:429.676 - 0.044ms returns 0x00000000
T85E0 004:429.704 JLINK_ReadReg(FPS15)
T85E0 004:429.732 - 0.041ms returns 0x00000000
T85E0 004:429.761 JLINK_ReadReg(FPS16)
T85E0 004:429.797 - 0.052ms returns 0x00000000
T85E0 004:429.832 JLINK_ReadReg(FPS17)
T85E0 004:429.865 - 0.051ms returns 0x00000000
T85E0 004:429.901 JLINK_ReadReg(FPS18)
T85E0 004:429.935 - 0.050ms returns 0x00000000
T85E0 004:429.969 JLINK_ReadReg(FPS19)
T85E0 004:430.004 - 0.052ms returns 0x00000000
T85E0 004:430.040 JLINK_ReadReg(FPS20)
T85E0 004:430.075 - 0.053ms returns 0x00000000
T85E0 004:430.113 JLINK_ReadReg(FPS21)
T85E0 004:430.147 - 0.047ms returns 0x00000000
T85E0 004:430.175 JLINK_ReadReg(FPS22)
T85E0 004:430.202 - 0.040ms returns 0x00000000
T85E0 004:430.239 JLINK_ReadReg(FPS23)
T85E0 004:430.267 - 0.041ms returns 0x00000000
T85E0 004:430.294 JLINK_ReadReg(FPS24)
T85E0 004:430.333 - 0.053ms returns 0x00000000
T85E0 004:430.375 JLINK_ReadReg(FPS25)
T85E0 004:430.406 - 0.044ms returns 0x00000000
T85E0 004:430.434 JLINK_ReadReg(FPS26)
T85E0 004:430.471 - 0.050ms returns 0x00000000
T85E0 004:430.499 JLINK_ReadReg(FPS27)
T85E0 004:430.527 - 0.040ms returns 0x00000000
T85E0 004:430.554 JLINK_ReadReg(FPS28)
T85E0 004:430.581 - 0.042ms returns 0x00000000
T85E0 004:430.610 JLINK_ReadReg(FPS29)
T85E0 004:430.637 - 0.040ms returns 0x00000000
T85E0 004:430.665 JLINK_ReadReg(FPS30)
T85E0 004:430.692 - 0.040ms returns 0x00000000
T85E0 004:430.719 JLINK_ReadReg(FPS31)
T85E0 004:430.766 - 0.060ms returns 0x00000000
T27A8 004:430.876 JLINK_ReadMemEx(0x20000008, 0x4 Bytes, Flags = 0x02000000)
T27A8 004:430.955   CPU_ReadMem(64 bytes @ 0x20000000)
T27A8 004:431.961    -- Updating C cache (64 bytes @ 0x20000000)
T27A8 004:432.029    -- Read from C cache (4 bytes @ 0x20000008)
T27A8 004:432.070   Data:  00 00 00 00
T27A8 004:432.111 - 1.249ms returns 4 (0x4)
T27A8 004:433.304 JLINK_ReadMemEx(0x20000018, 0x4 Bytes, Flags = 0x02000000)
T27A8 004:433.375    -- Read from C cache (4 bytes @ 0x20000018)
T27A8 004:433.417   Data:  00 00 00 00
T27A8 004:433.458 - 0.167ms returns 4 (0x4)
T27A8 004:433.802 JLINK_ReadMemEx(0x2000001C, 0x4 Bytes, Flags = 0x02000000)
T27A8 004:433.864    -- Read from C cache (4 bytes @ 0x2000001C)
T27A8 004:433.906   Data:  00 00 00 00
T27A8 004:433.952 - 0.162ms returns 4 (0x4)
T27A8 004:434.310 JLINK_ReadMemEx(0x20000020, 0x4 Bytes, Flags = 0x02000000)
T27A8 004:434.364    -- Read from C cache (4 bytes @ 0x20000020)
T27A8 004:434.409   Data:  00 00 00 00
T27A8 004:434.449 - 0.152ms returns 4 (0x4)
T27A8 004:434.761 JLINK_ReadMemEx(0x2000008C, 0x4 Bytes, Flags = 0x02000000)
T27A8 004:434.818   CPU_ReadMem(64 bytes @ 0x20000080)
T27A8 004:435.848    -- Updating C cache (64 bytes @ 0x20000080)
T27A8 004:435.931    -- Read from C cache (4 bytes @ 0x2000008C)
T27A8 004:435.974   Data:  9A 99 39 3F
T27A8 004:436.016 - 1.268ms returns 4 (0x4)
T27A8 004:436.572 JLINK_ReadMemEx(0x20000090, 0x4 Bytes, Flags = 0x02000000)
T27A8 004:436.639    -- Read from C cache (4 bytes @ 0x20000090)
T27A8 004:436.751   Data:  29 CB 90 3D
T27A8 004:436.840 - 0.298ms returns 4 (0x4)
T27A8 004:437.466 JLINK_ReadMemEx(0x20000384, 0x4 Bytes, Flags = 0x02000000)
T27A8 004:437.517   CPU_ReadMem(64 bytes @ 0x20000380)
T27A8 004:438.508    -- Updating C cache (64 bytes @ 0x20000380)
T27A8 004:438.576    -- Read from C cache (4 bytes @ 0x20000384)
T27A8 004:438.617   Data:  00 00 00 00
T27A8 004:438.659 - 1.206ms returns 4 (0x4)
T27A8 004:439.174 JLINK_ReadMemEx(0x20000078, 0x4 Bytes, Flags = 0x02000000)
T27A8 004:439.240   CPU_ReadMem(64 bytes @ 0x20000040)
T27A8 004:440.256    -- Updating C cache (64 bytes @ 0x20000040)
T27A8 004:440.361    -- Read from C cache (4 bytes @ 0x20000078)
T27A8 004:440.406   Data:  00 00 00 00
T27A8 004:440.450 - 1.290ms returns 4 (0x4)
T27A8 004:440.930 JLINK_ReadMemEx(0x20000074, 0x4 Bytes, Flags = 0x02000000)
T27A8 004:440.984    -- Read from C cache (4 bytes @ 0x20000074)
T27A8 004:441.026   Data:  00 00 00 00
T27A8 004:441.069 - 0.152ms returns 4 (0x4)
T27A8 004:441.368 JLINK_ReadMemEx(0x20000030, 0x4 Bytes, Flags = 0x02000000)
T27A8 004:441.409    -- Read from C cache (4 bytes @ 0x20000030)
T27A8 004:441.451   Data:  00 00 00 00
T27A8 004:441.492 - 0.137ms returns 4 (0x4)
T27A8 004:441.783 JLINK_ReadMemEx(0x2000038C, 0x4 Bytes, Flags = 0x02000000)
T27A8 004:441.830    -- Read from C cache (4 bytes @ 0x2000038C)
T27A8 004:441.873   Data:  00 00 00 00
T27A8 004:441.914 - 0.148ms returns 4 (0x4)
T27A8 004:442.238 JLINK_ReadMemEx(0x20000034, 0x4 Bytes, Flags = 0x02000000)
T27A8 004:442.289    -- Read from C cache (4 bytes @ 0x20000034)
T27A8 004:442.335   Data:  0A D7 A3 3C
T27A8 004:442.378 - 0.153ms returns 4 (0x4)
T27A8 004:442.777 JLINK_ReadMemEx(0x200000A0, 0x4 Bytes, Flags = 0x02000000)
T27A8 004:442.834    -- Read from C cache (4 bytes @ 0x200000A0)
T27A8 004:442.874   Data:  00 00 C0 40
T27A8 004:442.913 - 0.149ms returns 4 (0x4)
T27A8 004:443.341 JLINK_ReadMemEx(0x20000058, 0x4 Bytes, Flags = 0x02000000)
T27A8 004:443.388    -- Read from C cache (4 bytes @ 0x20000058)
T27A8 004:443.436   Data:  00 00 00 00
T27A8 004:443.475 - 0.147ms returns 4 (0x4)
T27A8 004:443.816 JLINK_ReadMemEx(0x20000094, 0x4 Bytes, Flags = 0x02000000)
T27A8 004:443.860    -- Read from C cache (4 bytes @ 0x20000094)
T27A8 004:443.899   Data:  6F 12 03 3C
T27A8 004:443.937 - 0.133ms returns 4 (0x4)
T27A8 004:444.282 JLINK_ReadMemEx(0x20000098, 0x4 Bytes, Flags = 0x02000000)
T27A8 004:444.329    -- Read from C cache (4 bytes @ 0x20000098)
T27A8 004:444.377   Data:  E0 2D 10 3A
T27A8 004:444.417 - 0.147ms returns 4 (0x4)
T27A8 004:444.934 JLINK_ReadMemEx(0x200000A4, 0x4 Bytes, Flags = 0x02000000)
T27A8 004:445.008    -- Read from C cache (4 bytes @ 0x200000A4)
T27A8 004:445.050   Data:  00 00 16 44
T27A8 004:445.101 - 0.180ms returns 4 (0x4)
T27A8 007:306.726 JLINK_HasError()
T27A8 007:306.796 JLINK_SetResetType(JLINKARM_CM3_RESET_TYPE_NORMAL)
T27A8 007:306.823 - 0.041ms returns JLINKARM_CM3_RESET_TYPE_NORMAL
T27A8 007:306.852 JLINK_Reset()
T27A8 007:307.238   CPU_WriteMem(4 bytes @ 0xE000EDF0)
T27A8 007:307.946   CPU_WriteMem(4 bytes @ 0xE000EDFC)
T27A8 007:308.694   Reset: Halt core after reset via DEMCR.VC_CORERESET.
T27A8 007:309.889   Reset: Reset device via AIRCR.SYSRESETREQ.
T27A8 007:309.951   CPU_WriteMem(4 bytes @ 0xE000ED0C)
T27A8 007:365.180   CPU_ReadMem(4 bytes @ 0xE000EDF0)
T27A8 007:365.891   CPU_ReadMem(4 bytes @ 0xE000EDF0)
T27A8 007:366.496   CPU_WriteMem(4 bytes @ 0xE000EDF0)
T27A8 007:367.091   CPU_WriteMem(4 bytes @ 0xE000EDFC)
T27A8 007:373.240   CPU_ReadMem(4 bytes @ 0xE000EDF0)
T27A8 007:377.123   CPU_WriteMem(4 bytes @ 0xE0002000)
T27A8 007:377.802   CPU_ReadMem(4 bytes @ 0xE000EDFC)
T27A8 007:378.633   CPU_ReadMem(4 bytes @ 0xE0001000)
T27A8 007:379.450 - 72.620ms
T27A8 007:379.555 JLINK_HasError()
T27A8 007:379.593 JLINK_ReadReg(R15 (PC))
T27A8 007:379.628 - 0.046ms returns 0x080001F0
T27A8 007:379.655 JLINK_ReadReg(XPSR)
T27A8 007:379.680 - 0.038ms returns 0x01000000
T27A8 007:380.594 JLINK_ReadMemEx(0x080001F0, 0x3C Bytes, Flags = 0x02000000)
T27A8 007:380.689   CPU_ReadMem(128 bytes @ 0x080001C0)
T27A8 007:382.004    -- Updating C cache (128 bytes @ 0x080001C0)
T27A8 007:382.053    -- Read from C cache (60 bytes @ 0x080001F0)
T27A8 007:382.092   Data:  06 48 80 47 06 48 00 47 FE E7 FE E7 FE E7 FE E7 ...
T27A8 007:382.129 - 1.547ms returns 60 (0x3C)
T27A8 007:382.196 JLINK_ReadMemEx(0x080001F0, 0x2 Bytes, Flags = 0x02000000)
T27A8 007:382.228    -- Read from C cache (2 bytes @ 0x080001F0)
T27A8 007:382.265   Data:  06 48
T27A8 007:382.302 - 0.117ms returns 2 (0x2)
T27A8 007:382.328 JLINK_ReadMemEx(0x080001F2, 0x2 Bytes, Flags = 0x02000000)
T27A8 007:382.354    -- Read from C cache (2 bytes @ 0x080001F2)
T27A8 007:382.391   Data:  80 47
T27A8 007:382.427 - 0.114ms returns 2 (0x2)
T27A8 007:564.027 JLINK_HasError()
T27A8 007:564.098 JLINK_ReadReg(R0)
T27A8 007:564.137 - 0.053ms returns 0x00000000
T27A8 007:564.166 JLINK_ReadReg(R1)
T27A8 007:564.195 - 0.042ms returns 0x00000000
T27A8 007:564.224 JLINK_ReadReg(R2)
T27A8 007:564.252 - 0.043ms returns 0x00000000
T27A8 007:564.283 JLINK_ReadReg(R3)
T27A8 007:564.312 - 0.041ms returns 0x00000000
T27A8 007:564.339 JLINK_ReadReg(R4)
T27A8 007:564.366 - 0.039ms returns 0x00000000
T27A8 007:564.392 JLINK_ReadReg(R5)
T27A8 007:564.418 - 0.039ms returns 0x00000000
T27A8 007:564.445 JLINK_ReadReg(R6)
T27A8 007:564.472 - 0.040ms returns 0x00000000
T27A8 007:564.499 JLINK_ReadReg(R7)
T27A8 007:564.525 - 0.038ms returns 0x00000000
T27A8 007:564.551 JLINK_ReadReg(R8)
T27A8 007:564.579 - 0.040ms returns 0x00000000
T27A8 007:564.605 JLINK_ReadReg(R9)
T27A8 007:564.631 - 0.038ms returns 0x00000000
T27A8 007:564.657 JLINK_ReadReg(R10)
T27A8 007:564.683 - 0.038ms returns 0x00000000
T27A8 007:564.709 JLINK_ReadReg(R11)
T27A8 007:564.735 - 0.038ms returns 0x00000000
T27A8 007:564.761 JLINK_ReadReg(R12)
T27A8 007:564.787 - 0.038ms returns 0x00000000
T27A8 007:564.813 JLINK_ReadReg(R13 (SP))
T27A8 007:564.839 - 0.038ms returns 0x200007E0
T27A8 007:564.865 JLINK_ReadReg(R14)
T27A8 007:564.891 - 0.038ms returns 0xFFFFFFFF
T27A8 007:564.918 JLINK_ReadReg(R15 (PC))
T27A8 007:564.944 - 0.039ms returns 0x080001F0
T27A8 007:564.971 JLINK_ReadReg(XPSR)
T27A8 007:564.997 - 0.039ms returns 0x01000000
T27A8 007:565.024 JLINK_ReadReg(MSP)
T27A8 007:565.049 - 0.038ms returns 0x200007E0
T27A8 007:565.075 JLINK_ReadReg(PSP)
T27A8 007:565.101 - 0.038ms returns 0x00000000
T27A8 007:565.127 JLINK_ReadReg(CFBP)
T27A8 007:565.152 - 0.038ms returns 0x00000000
T27A8 007:565.180 JLINK_ReadReg(FPSCR)
T27A8 007:569.081 - 3.947ms returns 0x00000000
T27A8 007:569.168 JLINK_ReadReg(FPS0)
T27A8 007:569.200 - 0.045ms returns 0x00000000
T27A8 007:569.227 JLINK_ReadReg(FPS1)
T27A8 007:569.254 - 0.039ms returns 0x00000000
T27A8 007:569.280 JLINK_ReadReg(FPS2)
T27A8 007:569.306 - 0.038ms returns 0x00000000
T27A8 007:569.333 JLINK_ReadReg(FPS3)
T27A8 007:569.359 - 0.038ms returns 0x00000000
T27A8 007:569.385 JLINK_ReadReg(FPS4)
T27A8 007:569.411 - 0.038ms returns 0x00000000
T27A8 007:569.437 JLINK_ReadReg(FPS5)
T27A8 007:569.463 - 0.038ms returns 0x00000000
T27A8 007:569.489 JLINK_ReadReg(FPS6)
T27A8 007:569.515 - 0.038ms returns 0x00000000
T27A8 007:569.541 JLINK_ReadReg(FPS7)
T27A8 007:569.567 - 0.038ms returns 0x00000000
T27A8 007:569.593 JLINK_ReadReg(FPS8)
T27A8 007:569.619 - 0.038ms returns 0x00000000
T27A8 007:569.645 JLINK_ReadReg(FPS9)
T27A8 007:569.671 - 0.038ms returns 0x00000000
T27A8 007:569.697 JLINK_ReadReg(FPS10)
T27A8 007:569.722 - 0.038ms returns 0x00000000
T27A8 007:569.748 JLINK_ReadReg(FPS11)
T27A8 007:569.774 - 0.038ms returns 0x00000000
T27A8 007:569.800 JLINK_ReadReg(FPS12)
T27A8 007:569.826 - 0.038ms returns 0x00000000
T27A8 007:569.852 JLINK_ReadReg(FPS13)
T27A8 007:569.878 - 0.038ms returns 0x00000000
T27A8 007:569.904 JLINK_ReadReg(FPS14)
T27A8 007:569.930 - 0.038ms returns 0x00000000
T27A8 007:569.956 JLINK_ReadReg(FPS15)
T27A8 007:569.982 - 0.038ms returns 0x00000000
T27A8 007:570.008 JLINK_ReadReg(FPS16)
T27A8 007:570.033 - 0.038ms returns 0x00000000
T27A8 007:570.059 JLINK_ReadReg(FPS17)
T27A8 007:570.085 - 0.038ms returns 0x00000000
T27A8 007:570.111 JLINK_ReadReg(FPS18)
T27A8 007:570.136 - 0.038ms returns 0x00000000
T27A8 007:570.163 JLINK_ReadReg(FPS19)
T27A8 007:570.188 - 0.038ms returns 0x00000000
T27A8 007:570.214 JLINK_ReadReg(FPS20)
T27A8 007:570.240 - 0.038ms returns 0x00000000
T27A8 007:570.266 JLINK_ReadReg(FPS21)
T27A8 007:570.291 - 0.038ms returns 0x00000000
T27A8 007:570.317 JLINK_ReadReg(FPS22)
T27A8 007:570.343 - 0.038ms returns 0x00000000
T27A8 007:570.369 JLINK_ReadReg(FPS23)
T27A8 007:570.399 - 0.042ms returns 0x00000000
T27A8 007:570.425 JLINK_ReadReg(FPS24)
T27A8 007:570.451 - 0.038ms returns 0x00000000
T27A8 007:570.477 JLINK_ReadReg(FPS25)
T27A8 007:570.506 - 0.044ms returns 0x00000000
T27A8 007:570.534 JLINK_ReadReg(FPS26)
T27A8 007:570.560 - 0.038ms returns 0x00000000
T27A8 007:570.586 JLINK_ReadReg(FPS27)
T27A8 007:570.612 - 0.038ms returns 0x00000000
T27A8 007:570.638 JLINK_ReadReg(FPS28)
T27A8 007:570.663 - 0.038ms returns 0x00000000
T27A8 007:570.689 JLINK_ReadReg(FPS29)
T27A8 007:570.715 - 0.038ms returns 0x00000000
T27A8 007:570.740 JLINK_ReadReg(FPS30)
T27A8 007:570.766 - 0.038ms returns 0x00000000
T27A8 007:570.792 JLINK_ReadReg(FPS31)
T27A8 007:570.817 - 0.037ms returns 0x00000000
T27A8 007:570.848 JLINK_ReadMemEx(0x20000008, 0x4 Bytes, Flags = 0x02000000)
T27A8 007:570.883   CPU_ReadMem(64 bytes @ 0x20000000)
T27A8 007:571.887    -- Updating C cache (64 bytes @ 0x20000000)
T27A8 007:572.000    -- Read from C cache (4 bytes @ 0x20000008)
T27A8 007:572.082   Data:  00 00 00 00
T27A8 007:572.182 - 1.375ms returns 4 (0x4)
T27A8 007:573.998 JLINK_ReadMemEx(0x20000018, 0x4 Bytes, Flags = 0x02000000)
T27A8 007:574.076    -- Read from C cache (4 bytes @ 0x20000018)
T27A8 007:574.116   Data:  00 00 00 00
T27A8 007:574.155 - 0.169ms returns 4 (0x4)
T27A8 007:574.454 JLINK_ReadMemEx(0x2000001C, 0x4 Bytes, Flags = 0x02000000)
T27A8 007:574.492    -- Read from C cache (4 bytes @ 0x2000001C)
T27A8 007:574.530   Data:  00 00 00 00
T27A8 007:574.568 - 0.126ms returns 4 (0x4)
T27A8 007:574.838 JLINK_ReadMemEx(0x20000020, 0x4 Bytes, Flags = 0x02000000)
T27A8 007:574.874    -- Read from C cache (4 bytes @ 0x20000020)
T27A8 007:574.912   Data:  00 00 00 00
T27A8 007:574.950 - 0.124ms returns 4 (0x4)
T27A8 007:575.225 JLINK_ReadMemEx(0x2000008C, 0x4 Bytes, Flags = 0x02000000)
T27A8 007:575.267   CPU_ReadMem(64 bytes @ 0x20000080)
T27A8 007:576.256    -- Updating C cache (64 bytes @ 0x20000080)
